T225C 000:007.997   SEGGER J-Link V9.38a Log File
T225C 000:008.095   DLL Compiled: Apr 23 2026 11:41:01
T225C 000:008.099   Logging started @ 2026-06-15 02:42
T225C 000:008.103   Process: C:\Program Files\Keil_v5\UV4\UV4.exe
T225C 000:008.114 - 8.106ms 
T225C 000:008.120 JLINK_SetWarnOutHandler(...)
T225C 000:008.124 - 0.004ms 
T225C 000:008.131 JLINK_OpenEx(...)
T225C 000:017.705   Firmware: J-Link V9 compiled May  7 2021 16:26:12
T225C 000:018.988   Firmware: J-Link V9 compiled May  7 2021 16:26:12
T225C 000:019.110   Decompressing FW timestamp took 105 us
T225C 000:025.865   Hardware: V9.60
T225C 000:025.878   S/N: 69660824
T225C 000:025.884   OEM: SEGGER
T225C 000:025.889   Feature(s): RDI, GDB, FlashDL, FlashBP, JFlash
T225C 000:027.403   Bootloader: (FW returned invalid version)
T225C 000:029.397   TELNET listener socket opened on port 19021
T225C 000:029.646   WEBSRV WEBSRV_Init(): Starting webserver thread(s)
T225C 000:029.710   WEBSRV Failed to put socket into listener state (port 19080)
T225C 000:029.797   WEBSRV Webserver running on local port 19081
T225C 000:029.957   Looking for J-Link GUI Server exe at: C:\Program Files\Keil_v5\ARM\Segger\JLinkGUIServer.exe
T225C 000:030.125   Looking for J-Link GUI Server exe at: C:\Program Files\SEGGER\JLink_V938a\JLinkGUIServer.exe
T225C 000:030.197   Forking J-Link GUI Server: C:\Program Files\SEGGER\JLink_V938a\JLinkGUIServer.exe
T225C 000:039.710   J-Link GUI Server info: "J-Link GUI server V9.38a "
T225C 000:043.283 - 35.143ms returns "O.K."
T225C 000:043.363 JLINK_GetEmuCaps()
T225C 000:043.371 - 0.006ms returns 0xB9FF7BBF
T225C 000:043.376 JLINK_TIF_GetAvailable(...)
T225C 000:043.934 - 0.557ms 
T225C 000:044.007 JLINK_SetErrorOutHandler(...)
T225C 000:044.014 - 0.006ms 
T225C 000:044.053 JLINK_ExecCommand("ProjectFile = "d:\hb\hsm_III_lite_v1.0\MDK-ARM\JLinkSettings.ini"", ...). 
T225C 000:058.431   Ref file found at: C:\Program Files\Keil_v5\ARM\Segger\JLinkDevices.ref
T225C 000:058.573   REF file references invalid XML file: C:\Program Files\SEGGER\JLink_V938a\JLinkDevices.xml
T225C 000:059.658 - 15.607ms returns 0x00
T225C 000:060.177 JLINK_ExecCommand("Device = STM32H723VGTx", ...). 
T225C 000:061.368   Flash bank @ 0x08000000: SFL: Parsing sectorization info from ELF file
T225C 000:061.381     FlashDevice.SectorInfo[0]: .SectorSize = 0x00020000, .SectorStartAddr = 0x00000000
T225C 000:061.388   FlashBank @0x08000000: Sectorization info from SFL ELF file ignored because sectorization override from DLL / XML file is active.
T225C 000:061.699   Flash bank @ 0x90000000: SFL: Parsing sectorization info from ELF file
T225C 000:061.708     FlashDevice.SectorInfo[0]: .SectorSize = 0x00010000, .SectorStartAddr = 0x00000000
T225C 000:066.012   Device "STM32H723VG" selected.
T225C 000:067.579 - 7.399ms returns 0x00
T225C 000:067.741   ERROR: Unknown command
T225C 000:067.792 JLINK_GetHardwareVersion()
T225C 000:067.813 - 0.027ms returns 96000
T225C 000:067.835 JLINK_GetDLLVersion()
T225C 000:067.854 - 0.017ms returns 93801
T225C 000:067.874 JLINK_GetOEMString(...)
T225C 000:067.897 JLINK_GetFirmwareString(...)
T225C 000:067.916 - 0.018ms 
T225C 000:069.071 JLINK_GetDLLVersion()
T225C 000:069.077 - 0.005ms returns 93801
T225C 000:069.081 JLINK_GetCompileDateTime()
T225C 000:069.085 - 0.003ms 
T225C 000:070.110 JLINK_GetFirmwareString(...)
T225C 000:070.142 - 0.031ms 
T225C 000:070.274 JLINK_GetHardwareVersion()
T225C 000:070.279 - 0.005ms returns 96000
T225C 000:070.336 JLINK_GetSN()
T225C 000:070.340 - 0.003ms returns 69660824
T225C 000:071.665 JLINK_GetOEMString(...)
T225C 000:073.381 JLINK_TIF_Select(JLINKARM_TIF_SWD)
T225C 000:075.269 - 1.889ms returns 0x00
T225C 000:075.448 JLINK_HasError()
T225C 000:075.531 JLINK_SetSpeed(3000)
T225C 000:075.953 - 0.429ms 
T225C 000:076.109 JLINK_GetId()
T225C 000:078.406   ConfigTargetSettings() start
T225C 000:078.414    J-Link Script File: Executing ConfigTargetSettings()
T225C 000:081.127   ConfigTargetSettings() end - Took 41us
T225C 000:082.397   InitTarget() start
T225C 000:082.447    J-Link Script File: Executing InitTarget()
T225C 000:083.566   SWD selected. Executing JTAG -> SWD switching sequence.
T225C 000:087.692   DAP initialized successfully.
T225C 000:106.087   InitTarget() end - Took 22.9ms
T225C 000:107.863   Found SW-DP with ID 0x6BA02477
T225C 000:112.853   DPIDR: 0x6BA02477
T225C 000:113.187   CoreSight SoC-400 or earlier
T225C 000:113.484   Scanning AP map to find all available APs
T225C 000:116.029   AP[3]: Stopped AP scan as end of AP map has been reached
T225C 000:116.213   AP[0]: AHB-AP (IDR: 0x84770001, ADDR: 0x00000000)
T225C 000:116.368   AP[1]: AHB-AP (IDR: 0x84770001, ADDR: 0x01000000)
T225C 000:116.508   AP[2]: APB-AP (IDR: 0x54770002, ADDR: 0x02000000)
T225C 000:116.652   Iterating through AP map to find AHB-AP to use
T225C 000:119.806   AP[0]: Core found
T225C 000:121.433   AP[0]: AHB-AP ROM base: 0xE00FE000
T225C 000:122.619   CPUID register: 0x411FC272. Implementer code: 0x41 (ARM)
T225C 000:124.663   Cache: L1 I/D-cache present
T225C 000:124.955   Found Cortex-M7 r1p2, Little endian.
T225C 000:125.871   -- Max. mem block: 0x0000D208
T225C 000:128.654   CPU_ReadMem(4 bytes @ 0xE000EDF0)
T225C 000:129.469   CPU_ReadMem(4 bytes @ 0xE0002000)
T225C 000:130.914   FPUnit: 8 code (BP) slots and 0 literal slots
T225C 000:130.929   CPU_ReadMem(4 bytes @ 0xE000EDFC)
T225C 000:131.583   CPU_WriteMem(4 bytes @ 0xE000EDFC)
T225C 000:132.317   CPU_ReadMem(4 bytes @ 0xE0001000)
T225C 000:133.156   CPU_WriteMem(4 bytes @ 0xE0001000)
T225C 000:133.810   CPU_ReadMem(4 bytes @ 0xE000ED88)
T225C 000:134.668   CPU_WriteMem(4 bytes @ 0xE000ED88)
T225C 000:135.581   CPU_ReadMem(4 bytes @ 0xE000ED88)
T225C 000:136.387   CPU_WriteMem(4 bytes @ 0xE000ED88)
T225C 000:137.568   CoreSight components:
T225C 000:137.747   ROMTbl[0] @ E00FE000
T225C 000:137.775   CPU_ReadMem(64 bytes @ 0xE00FE000)
T225C 000:138.998   CPU_ReadMem(32 bytes @ 0xE00FFFE0)
T225C 000:140.452   [0][0]: E00FF000 CID B105100D PID 000BB4C7 ROM Table
T225C 000:140.649   ROMTbl[1] @ E00FF000
T225C 000:140.659   CPU_ReadMem(64 bytes @ 0xE00FF000)
T225C 000:141.893   CPU_ReadMem(32 bytes @ 0xE000EFE0)
T225C 000:145.540   [1][0]: E000E000 CID B105E00D PID 000BB00C SCS-M7
T225C 000:145.560   CPU_ReadMem(32 bytes @ 0xE0001FE0)
T225C 000:147.136   [1][1]: E0001000 CID B105E00D PID 000BB002 DWT
T225C 000:147.152   CPU_ReadMem(32 bytes @ 0xE0002FE0)
T225C 000:148.395   [1][2]: E0002000 CID B105E00D PID 000BB00E FPB-M7
T225C 000:148.407   CPU_ReadMem(32 bytes @ 0xE0000FE0)
T225C 000:149.991   [1][3]: E0000000 CID B105E00D PID 000BB001 ITM
T225C 000:150.005   CPU_ReadMem(32 bytes @ 0xE0041FE0)
T225C 000:151.286   [0][1]: E0041000 CID B105900D PID 001BB975 ETM-M7
T225C 000:151.296   CPU_ReadMem(32 bytes @ 0xE0043FE0)
T225C 000:152.541   [0][2]: E0043000 CID B105900D PID 004BB906 CTI
T225C 000:152.548   CPU_WriteMem(4 bytes @ 0xE000ED84)
T225C 000:153.143   CPU_ReadMem(4 bytes @ 0xE000ED80)
T225C 000:154.246   I-Cache L1: 32 KB, 512 Sets, 32 Bytes/Line, 2-Way
T225C 000:154.253   CPU_WriteMem(4 bytes @ 0xE000ED84)
T225C 000:154.988   CPU_ReadMem(4 bytes @ 0xE000ED80)
T225C 000:156.457   D-Cache L1: 32 KB, 256 Sets, 32 Bytes/Line, 4-Way
T225C 000:157.000 - 80.889ms returns 0x6BA02477
T225C 000:157.247 JLINK_GetDLLVersion()
T225C 000:157.287 - 0.039ms returns 93801
T225C 000:157.356 JLINK_CORE_GetFound()
T225C 000:157.386 - 0.029ms returns 0xE0100FF
T225C 000:157.415 JLINK_GetDebugInfo(0x100 = JLINKARM_ROM_TABLE_ADDR_INDEX)
T225C 000:157.451   Value=0xE00FE000
T225C 000:157.486 - 0.071ms returns 0
T225C 000:157.970 JLINK_GetDebugInfo(0x100 = JLINKARM_ROM_TABLE_ADDR_INDEX)
T225C 000:157.975   Value=0xE00FE000
T225C 000:157.981 - 0.011ms returns 0
T225C 000:157.986 JLINK_GetDebugInfo(0x101 = JLINKARM_DEBUG_INFO_ETM_ADDR_INDEX)
T225C 000:157.990   Value=0xE0041000
T225C 000:157.996 - 0.009ms returns 0
T225C 000:158.008 JLINK_ReadMemEx(0xE0041FD0, 0x20 Bytes, Flags = 0x02000004)
T225C 000:158.030   CPU_ReadMem(32 bytes @ 0xE0041FD0)
T225C 000:201.226   Data:  04 00 00 00 00 00 00 00 00 00 00 00 00 00 00 00 ...
T225C 000:201.259 - 43.250ms returns 32 (0x20)
T225C 000:201.333 JLINK_GetDebugInfo(0x102 = JLINKARM_DEBUG_INFO_MTB_ADDR_INDEX)
T225C 000:201.340   Value=0x00000000
T225C 000:201.345 - 0.013ms returns 0
T225C 000:201.352 JLINK_GetDebugInfo(0x103 = JLINKARM_DEBUG_INFO_TPIU_ADDR_INDEX)
T225C 000:201.356   Value=0xE00F5000
T225C 000:201.361 - 0.009ms returns 0
T225C 000:201.367 JLINK_GetDebugInfo(0x104 = JLINKARM_DEBUG_INFO_ITM_ADDR_INDEX)
T225C 000:201.371   Value=0xE0000000
T225C 000:201.377 - 0.009ms returns 0
T225C 000:201.383 JLINK_GetDebugInfo(0x105 = JLINKARM_DEBUG_INFO_DWT_ADDR_INDEX)
T225C 000:201.386   Value=0xE0001000
T225C 000:201.392 - 0.009ms returns 0
T225C 000:201.398 JLINK_GetDebugInfo(0x106 = JLINKARM_DEBUG_INFO_FPB_ADDR_INDEX)
T225C 000:201.401   Value=0xE0002000
T225C 000:201.408 - 0.010ms returns 0
T225C 000:201.414 JLINK_GetDebugInfo(0x107 = JLINKARM_DEBUG_INFO_NVIC_ADDR_INDEX)
T225C 000:201.417   Value=0xE000E000
T225C 000:201.423 - 0.009ms returns 0
T225C 000:201.428 JLINK_GetDebugInfo(0x10C = JLINKARM_DEBUG_INFO_DBG_ADDR_INDEX)
T225C 000:201.432   Value=0xE000EDF0
T225C 000:201.437 - 0.009ms returns 0
T225C 000:201.443 JLINK_GetDebugInfo(0x01 = Unknown)
T225C 000:201.447   Value=0x00000001
T225C 000:201.453 - 0.009ms returns 0
T225C 000:201.459 JLINK_ReadMemU32(0xE000ED00, 0x1 Items)
T225C 000:201.469   CPU_ReadMem(4 bytes @ 0xE000ED00)
T225C 000:201.979   Data:  72 C2 1F 41
T225C 000:201.989   Debug reg: CPUID
T225C 000:201.995 - 0.536ms returns 1 (0x1)
T225C 000:202.020 JLINK_GetDebugInfo(0x10F = JLINKARM_DEBUG_INFO_HAS_CORTEX_M_SECURITY_EXT_INDEX)
T225C 000:202.024   Value=0x00000000
T225C 000:202.030 - 0.010ms returns 0
T225C 000:202.037 JLINK_HasError()
T225C 000:202.047 JLINK_SetResetType(JLINKARM_CM3_RESET_TYPE_NORMAL)
T225C 000:202.051 - 0.004ms returns JLINKARM_CM3_RESET_TYPE_NORMAL
T225C 000:202.064 JLINK_Reset()
T225C 000:202.663   JLINK_GetResetTypeDesc
T225C 000:202.685   - 0.022ms 
T225C 000:203.541   Reset type: NORMAL (https://kb.segger.com/J-Link_Reset_Strategies)
T225C 000:203.575   CPU is running
T225C 000:203.590   CPU_WriteMem(4 bytes @ 0xE000EDF0)
T225C 000:204.248   CPU is running
T225C 000:204.268   CPU_WriteMem(4 bytes @ 0xE000EDFC)
T225C 000:205.172   Reset: Halt core after reset via DEMCR.VC_CORERESET.
T225C 000:206.250   Reset: Reset device via AIRCR.SYSRESETREQ.
T225C 000:206.263   CPU is running
T225C 000:206.274   CPU_WriteMem(4 bytes @ 0xE000ED0C)
T225C 000:260.000   CPU_ReadMem(4 bytes @ 0xE000EDF0)
T225C 000:260.684   CPU_ReadMem(4 bytes @ 0xE000EDF0)
T225C 000:270.345   CPU_WriteMem(4 bytes @ 0xE000EDFC)
T225C 000:276.374   CPU_ReadMem(4 bytes @ 0xE000EDF0)
T225C 000:281.744   CPU_WriteMem(4 bytes @ 0xE0002000)
T225C 000:282.226   CPU_ReadMem(4 bytes @ 0xE000EDFC)
T225C 000:282.634   CPU_ReadMem(4 bytes @ 0xE0001000)
T225C 000:283.098 - 81.033ms 
T225C 000:283.138 JLINK_Halt()
T225C 000:283.144 - 0.006ms returns 0x00
T225C 000:283.151 JLINK_ReadMemU32(0xE000EDF0, 0x1 Items)
T225C 000:283.161   CPU_ReadMem(4 bytes @ 0xE000EDF0)
T225C 000:325.909   Data:  03 00 03 00
T225C 000:325.988   Debug reg: DHCSR
T225C 000:326.005 - 42.853ms returns 1 (0x1)
T225C 000:326.142 JLINK_WriteU32(0xE000EDF0, 0xA05F0003)
T225C 000:326.156   Debug reg: DHCSR
T225C 000:326.761   CPU_WriteMem(4 bytes @ 0xE000EDF0)
T225C 000:328.419 - 2.276ms returns 0 (0x00000000)
T225C 000:328.570 JLINK_WriteU32(0xE000EDFC, 0x01000000)
T225C 000:328.585   Debug reg: DEMCR
T225C 000:328.616   CPU_WriteMem(4 bytes @ 0xE000EDFC)
T225C 000:329.263 - 0.693ms returns 0 (0x00000000)
T225C 000:331.042 JLINK_GetHWStatus(...)
T225C 000:331.340 - 0.297ms returns 0
T225C 000:333.737 JLINK_GetNumBPUnits(Type = 0xFFFFFF00)
T225C 000:333.751 - 0.014ms returns 0x08
T225C 000:333.762 JLINK_GetNumBPUnits(Type = 0xF0)
T225C 000:333.771 - 0.008ms returns 0x2000
T225C 000:333.781 JLINK_GetNumWPUnits()
T225C 000:333.790 - 0.008ms returns 4
T225C 000:334.715 JLINK_GetSpeed()
T225C 000:334.726 - 0.010ms returns 3000
T225C 000:335.291 JLINK_ReadMemU32(0xE000E004, 0x1 Items)
T225C 000:335.312   CPU_ReadMem(4 bytes @ 0xE000E004)
T225C 000:335.996   Data:  05 00 00 00
T225C 000:336.018 - 0.727ms returns 1 (0x1)
T225C 000:336.094 JLINK_ReadMemU32(0xE000E004, 0x1 Items)
T225C 000:336.109   CPU_ReadMem(4 bytes @ 0xE000E004)
T225C 000:336.697   Data:  05 00 00 00
T225C 000:336.719 - 0.625ms returns 1 (0x1)
T225C 000:336.830 JLINK_WriteMemEx(0xE0001000, 0x0000001C Bytes, Flags = 0x02000004)
T225C 000:336.839   Data:  01 00 00 00 00 00 00 00 00 00 00 00 00 00 00 00 ...
T225C 000:336.863   CPU_WriteMem(28 bytes @ 0xE0001000)
T225C 000:337.660 - 0.830ms returns 0x1C
T225C 000:337.695 JLINK_Halt()
T225C 000:337.703 - 0.007ms returns 0x00
T225C 000:337.710 JLINK_IsHalted()
T225C 000:337.718 - 0.007ms returns TRUE
T225C 000:339.014 JLINK_WriteMem(0x20000000, 0x250 Bytes, ...)
T225C 000:339.024   Data:  00 BE 0A E0 0D 78 2D 06 68 40 08 24 40 00 00 D3 ...
T225C 000:339.334   CPU_WriteMem(592 bytes @ 0x20000000)
T225C 000:345.143 - 6.129ms returns 0x250
T225C 000:345.233 JLINK_HasError()
T225C 000:345.257 JLINK_WriteReg(R0, 0x08000000)
T225C 000:345.264 - 0.021ms returns 0
T225C 000:345.271 JLINK_WriteReg(R1, 0x016E3600)
T225C 000:345.276 - 0.005ms returns 0
T225C 000:345.282 JLINK_WriteReg(R2, 0x00000001)
T225C 000:345.287 - 0.005ms returns 0
T225C 000:345.293 JLINK_WriteReg(R3, 0x00000000)
T225C 000:345.298 - 0.005ms returns 0
T225C 000:345.304 JLINK_WriteReg(R4, 0x00000000)
T225C 000:345.309 - 0.005ms returns 0
T225C 000:345.316 JLINK_WriteReg(R5, 0x00000000)
T225C 000:345.321 - 0.005ms returns 0
T225C 000:345.327 JLINK_WriteReg(R6, 0x00000000)
T225C 000:345.332 - 0.005ms returns 0
T225C 000:345.338 JLINK_WriteReg(R7, 0x00000000)
T225C 000:345.343 - 0.005ms returns 0
T225C 000:345.349 JLINK_WriteReg(R8, 0x00000000)
T225C 000:345.354 - 0.005ms returns 0
T225C 000:345.361 JLINK_WriteReg(R9, 0x2000024C)
T225C 000:345.366 - 0.005ms returns 0
T225C 000:345.372 JLINK_WriteReg(R10, 0x00000000)
T225C 000:345.377 - 0.005ms returns 0
T225C 000:345.383 JLINK_WriteReg(R11, 0x00000000)
T225C 000:345.389 - 0.005ms returns 0
T225C 000:345.395 JLINK_WriteReg(R12, 0x00000000)
T225C 000:345.400 - 0.005ms returns 0
T225C 000:345.406 JLINK_WriteReg(R13 (SP), 0x20008000)
T225C 000:345.413 - 0.006ms returns 0
T225C 000:345.419 JLINK_WriteReg(R14, 0x20000001)
T225C 000:345.424 - 0.005ms returns 0
T225C 000:345.436 JLINK_WriteReg(R15 (PC), 0x20000038)
T225C 000:345.441 - 0.011ms returns 0
T225C 000:345.448 JLINK_WriteReg(XPSR, 0x01000000)
T225C 000:345.453 - 0.005ms returns 0
T225C 000:345.459 JLINK_WriteReg(MSP, 0x20008000)
T225C 000:345.464 - 0.005ms returns 0
T225C 000:345.471 JLINK_WriteReg(PSP, 0x20008000)
T225C 000:345.476 - 0.005ms returns 0
T225C 000:345.483 JLINK_WriteReg(CFBP, 0x00000000)
T225C 000:345.488 - 0.005ms returns 0
T225C 000:345.500 JLINK_SetBPEx(Addr = 0x20000000, Type = 0xFFFFFFF2)
T225C 000:345.507 - 0.007ms returns 0x00000001
T225C 000:345.513 JLINK_Go()
T225C 000:345.543   CPU_WriteMem(4 bytes @ 0xE0002000)
T225C 000:346.043   CPU_ReadMem(4 bytes @ 0xE0001000)
T225C 000:346.456   CPU_WriteMem(4 bytes @ 0xE0002008)
T225C 000:346.465   CPU_WriteMem(4 bytes @ 0xE000200C)
T225C 000:346.472   CPU_WriteMem(4 bytes @ 0xE0002010)
T225C 000:346.480   CPU_WriteMem(4 bytes @ 0xE0002014)
T225C 000:346.487   CPU_WriteMem(4 bytes @ 0xE0002018)
T225C 000:346.494   CPU_WriteMem(4 bytes @ 0xE000201C)
T225C 000:346.501   CPU_WriteMem(4 bytes @ 0xE0002020)
T225C 000:346.508   CPU_WriteMem(4 bytes @ 0xE0002024)
T225C 000:349.151   CPU_WriteMem(4 bytes @ 0xE0001004)
T225C 000:354.681   Memory map 'after startup completion point' is active
T225C 000:354.694 - 9.180ms 
T225C 000:354.752 JLINK_IsHalted()
T225C 000:359.461 - 4.707ms returns TRUE
T225C 000:359.538 JLINK_ReadReg(R15 (PC))
T225C 000:359.550 - 0.012ms returns 0x20000000
T225C 000:359.584 JLINK_ClrBPEx(BPHandle = 0x00000001)
T225C 000:359.595 - 0.011ms returns 0x00
T225C 000:359.607 JLINK_ReadReg(R0)
T225C 000:359.616 - 0.009ms returns 0x00000000
T225C 000:359.740 JLINK_HasError()
T225C 000:359.755 JLINK_WriteReg(R0, 0x08000000)
T225C 000:359.767 - 0.011ms returns 0
T225C 000:359.778 JLINK_WriteReg(R1, 0x00020000)
T225C 000:359.788 - 0.010ms returns 0
T225C 000:359.799 JLINK_WriteReg(R2, 0x000000FF)
T225C 000:359.809 - 0.009ms returns 0
T225C 000:359.820 JLINK_WriteReg(R3, 0x00000000)
T225C 000:359.830 - 0.009ms returns 0
T225C 000:359.841 JLINK_WriteReg(R4, 0x00000000)
T225C 000:359.850 - 0.009ms returns 0
T225C 000:359.861 JLINK_WriteReg(R5, 0x00000000)
T225C 000:359.871 - 0.009ms returns 0
T225C 000:359.882 JLINK_WriteReg(R6, 0x00000000)
T225C 000:359.893 - 0.010ms returns 0
T225C 000:359.904 JLINK_WriteReg(R7, 0x00000000)
T225C 000:359.914 - 0.009ms returns 0
T225C 000:359.925 JLINK_WriteReg(R8, 0x00000000)
T225C 000:359.934 - 0.009ms returns 0
T225C 000:359.946 JLINK_WriteReg(R9, 0x2000024C)
T225C 000:359.955 - 0.009ms returns 0
T225C 000:359.966 JLINK_WriteReg(R10, 0x00000000)
T225C 000:359.976 - 0.009ms returns 0
T225C 000:359.987 JLINK_WriteReg(R11, 0x00000000)
T225C 000:359.997 - 0.009ms returns 0
T225C 000:360.008 JLINK_WriteReg(R12, 0x00000000)
T225C 000:360.018 - 0.009ms returns 0
T225C 000:360.029 JLINK_WriteReg(R13 (SP), 0x20008000)
T225C 000:360.040 - 0.010ms returns 0
T225C 000:360.051 JLINK_WriteReg(R14, 0x20000001)
T225C 000:360.061 - 0.009ms returns 0
T225C 000:360.073 JLINK_WriteReg(R15 (PC), 0x20000020)
T225C 000:360.082 - 0.009ms returns 0
T225C 000:360.094 JLINK_WriteReg(XPSR, 0x01000000)
T225C 000:360.103 - 0.009ms returns 0
T225C 000:360.115 JLINK_WriteReg(MSP, 0x20008000)
T225C 000:360.124 - 0.009ms returns 0
T225C 000:360.136 JLINK_WriteReg(PSP, 0x20008000)
T225C 000:360.145 - 0.009ms returns 0
T225C 000:360.157 JLINK_WriteReg(CFBP, 0x00000000)
T225C 000:360.166 - 0.009ms returns 0
T225C 000:360.178 JLINK_SetBPEx(Addr = 0x20000000, Type = 0xFFFFFFF2)
T225C 000:360.190 - 0.011ms returns 0x00000002
T225C 000:360.201 JLINK_Go()
T225C 000:360.218   CPU_WriteMem(4 bytes @ 0xE0002000)
T225C 000:360.896   CPU_ReadMem(4 bytes @ 0xE0001000)
T225C 000:366.424 - 6.221ms 
T225C 000:366.533 JLINK_IsHalted()
T225C 000:367.080 - 0.546ms returns FALSE
T225C 000:367.126 JLINK_HasError()
T225C 000:447.821 JLINK_IsHalted()
T225C 000:453.090 - 5.268ms returns TRUE
T225C 000:453.212 JLINK_ReadReg(R15 (PC))
T225C 000:453.236 - 0.023ms returns 0x20000000
T225C 000:453.250 JLINK_ClrBPEx(BPHandle = 0x00000002)
T225C 000:453.262 - 0.012ms returns 0x00
T225C 000:453.276 JLINK_ReadReg(R0)
T225C 000:453.287 - 0.011ms returns 0x00000000
T225C 000:453.497 JLINK_HasError()
T225C 000:453.518 JLINK_WriteReg(R0, 0x00000001)
T225C 000:453.531 - 0.012ms returns 0
T225C 000:453.544 JLINK_WriteReg(R1, 0x00020000)
T225C 000:453.557 - 0.013ms returns 0
T225C 000:453.570 JLINK_WriteReg(R2, 0x000000FF)
T225C 000:453.582 - 0.011ms returns 0
T225C 000:453.595 JLINK_WriteReg(R3, 0x00000000)
T225C 000:453.607 - 0.012ms returns 0
T225C 000:453.620 JLINK_WriteReg(R4, 0x00000000)
T225C 000:453.632 - 0.011ms returns 0
T225C 000:453.645 JLINK_WriteReg(R5, 0x00000000)
T225C 000:453.656 - 0.011ms returns 0
T225C 000:453.669 JLINK_WriteReg(R6, 0x00000000)
T225C 000:453.680 - 0.011ms returns 0
T225C 000:453.694 JLINK_WriteReg(R7, 0x00000000)
T225C 000:453.706 - 0.011ms returns 0
T225C 000:453.719 JLINK_WriteReg(R8, 0x00000000)
T225C 000:453.731 - 0.011ms returns 0
T225C 000:453.744 JLINK_WriteReg(R9, 0x2000024C)
T225C 000:453.756 - 0.012ms returns 0
T225C 000:453.770 JLINK_WriteReg(R10, 0x00000000)
T225C 000:453.781 - 0.011ms returns 0
T225C 000:453.794 JLINK_WriteReg(R11, 0x00000000)
T225C 000:453.806 - 0.012ms returns 0
T225C 000:453.820 JLINK_WriteReg(R12, 0x00000000)
T225C 000:453.831 - 0.011ms returns 0
T225C 000:453.845 JLINK_WriteReg(R13 (SP), 0x20008000)
T225C 000:453.858 - 0.013ms returns 0
T225C 000:453.872 JLINK_WriteReg(R14, 0x20000001)
T225C 000:453.885 - 0.012ms returns 0
T225C 000:453.898 JLINK_WriteReg(R15 (PC), 0x20000060)
T225C 000:453.910 - 0.011ms returns 0
T225C 000:453.936 JLINK_WriteReg(XPSR, 0x01000000)
T225C 000:453.958 - 0.021ms returns 0
T225C 000:453.971 JLINK_WriteReg(MSP, 0x20008000)
T225C 000:453.983 - 0.011ms returns 0
T225C 000:453.996 JLINK_WriteReg(PSP, 0x20008000)
T225C 000:454.008 - 0.011ms returns 0
T225C 000:454.021 JLINK_WriteReg(CFBP, 0x00000000)
T225C 000:454.031 - 0.010ms returns 0
T225C 000:454.045 JLINK_SetBPEx(Addr = 0x20000000, Type = 0xFFFFFFF2)
T225C 000:454.058 - 0.013ms returns 0x00000003
T225C 000:454.070 JLINK_Go()
T225C 000:454.090   CPU_WriteMem(4 bytes @ 0xE0002000)
T225C 000:454.807   CPU_ReadMem(4 bytes @ 0xE0001000)
T225C 000:460.273 - 6.202ms 
T225C 000:460.354 JLINK_IsHalted()
T225C 000:465.148 - 4.793ms returns TRUE
T225C 000:465.177 JLINK_ReadReg(R15 (PC))
T225C 000:465.183 - 0.005ms returns 0x20000000
T225C 000:465.192 JLINK_ClrBPEx(BPHandle = 0x00000003)
T225C 000:465.196 - 0.004ms returns 0x00
T225C 000:465.202 JLINK_ReadReg(R0)
T225C 000:465.206 - 0.004ms returns 0x00000000
T225C 000:516.860 JLINK_WriteMem(0x20000000, 0x250 Bytes, ...)
T225C 000:516.872   Data:  00 BE 0A E0 0D 78 2D 06 68 40 08 24 40 00 00 D3 ...
T225C 000:516.890   CPU_WriteMem(592 bytes @ 0x20000000)
T225C 000:543.206 - 26.345ms returns 0x250
T225C 000:543.373 JLINK_HasError()
T225C 000:543.385 JLINK_WriteReg(R0, 0x08000000)
T225C 000:543.394 - 0.009ms returns 0
T225C 000:543.402 JLINK_WriteReg(R1, 0x016E3600)
T225C 000:543.408 - 0.006ms returns 0
T225C 000:543.415 JLINK_WriteReg(R2, 0x00000002)
T225C 000:543.421 - 0.006ms returns 0
T225C 000:543.427 JLINK_WriteReg(R3, 0x00000000)
T225C 000:543.433 - 0.005ms returns 0
T225C 000:543.440 JLINK_WriteReg(R4, 0x00000000)
T225C 000:543.446 - 0.005ms returns 0
T225C 000:543.453 JLINK_WriteReg(R5, 0x00000000)
T225C 000:543.488 - 0.035ms returns 0
T225C 000:543.495 JLINK_WriteReg(R6, 0x00000000)
T225C 000:543.501 - 0.005ms returns 0
T225C 000:543.508 JLINK_WriteReg(R7, 0x00000000)
T225C 000:543.515 - 0.006ms returns 0
T225C 000:543.521 JLINK_WriteReg(R8, 0x00000000)
T225C 000:543.527 - 0.005ms returns 0
T225C 000:543.534 JLINK_WriteReg(R9, 0x2000024C)
T225C 000:543.540 - 0.006ms returns 0
T225C 000:543.547 JLINK_WriteReg(R10, 0x00000000)
T225C 000:543.553 - 0.006ms returns 0
T225C 000:543.560 JLINK_WriteReg(R11, 0x00000000)
T225C 000:543.566 - 0.006ms returns 0
T225C 000:543.573 JLINK_WriteReg(R12, 0x00000000)
T225C 000:543.578 - 0.005ms returns 0
T225C 000:543.585 JLINK_WriteReg(R13 (SP), 0x20008000)
T225C 000:543.592 - 0.006ms returns 0
T225C 000:543.599 JLINK_WriteReg(R14, 0x20000001)
T225C 000:543.605 - 0.005ms returns 0
T225C 000:543.612 JLINK_WriteReg(R15 (PC), 0x20000038)
T225C 000:543.618 - 0.006ms returns 0
T225C 000:543.625 JLINK_WriteReg(XPSR, 0x01000000)
T225C 000:543.631 - 0.006ms returns 0
T225C 000:543.638 JLINK_WriteReg(MSP, 0x20008000)
T225C 000:543.643 - 0.005ms returns 0
T225C 000:543.650 JLINK_WriteReg(PSP, 0x20008000)
T225C 000:543.656 - 0.006ms returns 0
T225C 000:543.664 JLINK_WriteReg(CFBP, 0x00000000)
T225C 000:543.669 - 0.006ms returns 0
T225C 000:543.678 JLINK_SetBPEx(Addr = 0x20000000, Type = 0xFFFFFFF2)
T225C 000:543.686 - 0.009ms returns 0x00000004
T225C 000:543.693 JLINK_Go()
T225C 000:543.708   CPU_WriteMem(4 bytes @ 0xE0002000)
T225C 000:545.461   CPU_ReadMem(4 bytes @ 0xE0001000)
T225C 000:551.031 - 7.336ms 
T225C 000:551.086 JLINK_IsHalted()
T225C 000:555.954 - 4.868ms returns TRUE
T225C 000:555.997 JLINK_ReadReg(R15 (PC))
T225C 000:556.006 - 0.008ms returns 0x20000000
T225C 000:556.017 JLINK_ClrBPEx(BPHandle = 0x00000004)
T225C 000:556.024 - 0.007ms returns 0x00
T225C 000:558.327 JLINK_ReadReg(R0)
T225C 000:558.335 - 0.008ms returns 0x00000000
T225C 000:558.379 JLINK_WriteMem(0x20000250, 0x1B0 Bytes, ...)
T225C 000:558.388   Data:  50 38 00 24 E1 03 00 08 69 CD 00 08 49 AC 00 08 ...
T225C 000:558.412   CPU_WriteMem(432 bytes @ 0x20000250)
T225C 000:562.879 - 4.498ms returns 0x1B0
T225C 000:562.993 JLINK_WriteMem(0x20000400, 0x250 Bytes, ...)
T225C 000:563.001   Data:  FF 03 00 08 FF 03 00 08 FF 03 00 08 FF 03 00 08 ...
T225C 000:563.031   CPU_WriteMem(592 bytes @ 0x20000400)
T225C 000:569.044 - 6.049ms returns 0x250
T225C 000:569.178 JLINK_HasError()
T225C 000:569.222 JLINK_WriteReg(R0, 0x08000000)
T225C 000:569.245 - 0.024ms returns 0
T225C 000:569.267 JLINK_WriteReg(R1, 0x00000400)
T225C 000:569.285 - 0.018ms returns 0
T225C 000:569.306 JLINK_WriteReg(R2, 0x20000250)
T225C 000:569.323 - 0.017ms returns 0
T225C 000:569.343 JLINK_WriteReg(R3, 0x00000000)
T225C 000:569.360 - 0.017ms returns 0
T225C 000:569.380 JLINK_WriteReg(R4, 0x00000000)
T225C 000:569.397 - 0.017ms returns 0
T225C 000:569.417 JLINK_WriteReg(R5, 0x00000000)
T225C 000:569.434 - 0.017ms returns 0
T225C 000:569.454 JLINK_WriteReg(R6, 0x00000000)
T225C 000:569.471 - 0.017ms returns 0
T225C 000:569.491 JLINK_WriteReg(R7, 0x00000000)
T225C 000:569.508 - 0.017ms returns 0
T225C 000:569.527 JLINK_WriteReg(R8, 0x00000000)
T225C 000:569.544 - 0.017ms returns 0
T225C 000:569.565 JLINK_WriteReg(R9, 0x2000024C)
T225C 000:569.582 - 0.017ms returns 0
T225C 000:569.601 JLINK_WriteReg(R10, 0x00000000)
T225C 000:569.619 - 0.018ms returns 0
T225C 000:569.639 JLINK_WriteReg(R11, 0x00000000)
T225C 000:569.656 - 0.017ms returns 0
T225C 000:569.678 JLINK_WriteReg(R12, 0x00000000)
T225C 000:569.695 - 0.017ms returns 0
T225C 000:569.715 JLINK_WriteReg(R13 (SP), 0x20008000)
T225C 000:569.734 - 0.020ms returns 0
T225C 000:569.743 JLINK_WriteReg(R14, 0x20000001)
T225C 000:569.751 - 0.007ms returns 0
T225C 000:569.760 JLINK_WriteReg(R15 (PC), 0x2000014C)
T225C 000:569.768 - 0.007ms returns 0
T225C 000:569.777 JLINK_WriteReg(XPSR, 0x01000000)
T225C 000:569.784 - 0.007ms returns 0
T225C 000:569.793 JLINK_WriteReg(MSP, 0x20008000)
T225C 000:569.801 - 0.007ms returns 0
T225C 000:569.810 JLINK_WriteReg(PSP, 0x20008000)
T225C 000:569.818 - 0.007ms returns 0
T225C 000:569.827 JLINK_WriteReg(CFBP, 0x00000000)
T225C 000:569.834 - 0.007ms returns 0
T225C 000:569.844 JLINK_SetBPEx(Addr = 0x20000000, Type = 0xFFFFFFF2)
T225C 000:569.854 - 0.010ms returns 0x00000005
T225C 000:569.863 JLINK_Go()
T225C 000:569.878   CPU_WriteMem(4 bytes @ 0xE0002000)
T225C 000:570.501   CPU_ReadMem(4 bytes @ 0xE0001000)
T225C 000:579.721 - 9.857ms 
T225C 000:579.748 JLINK_IsHalted()
T225C 000:580.256 - 0.507ms returns FALSE
T225C 000:580.270 JLINK_HasError()
T225C 000:582.356 JLINK_IsHalted()
T225C 000:582.978 - 0.622ms returns FALSE
T225C 000:583.007 JLINK_HasError()
T225C 000:585.349 JLINK_IsHalted()
T225C 000:585.882 - 0.533ms returns FALSE
T225C 000:585.903 JLINK_HasError()
T225C 000:590.087 JLINK_IsHalted()
T225C 000:594.999 - 4.910ms returns TRUE
T225C 000:595.044 JLINK_ReadReg(R15 (PC))
T225C 000:595.050 - 0.006ms returns 0x20000000
T225C 000:595.057 JLINK_ClrBPEx(BPHandle = 0x00000005)
T225C 000:595.062 - 0.005ms returns 0x00
T225C 000:595.070 JLINK_ReadReg(R0)
T225C 000:595.074 - 0.004ms returns 0x00000000
T225C 000:595.108 JLINK_WriteMem(0x20000250, 0x1B0 Bytes, ...)
T225C 000:595.113   Data:  05 48 06 49 06 4A 07 4B 70 47 00 00 91 14 00 08 ...
T225C 000:595.126   CPU_WriteMem(432 bytes @ 0x20000250)
T225C 000:599.551 - 4.442ms returns 0x1B0
T225C 000:599.601 JLINK_WriteMem(0x20000400, 0x250 Bytes, ...)
T225C 000:599.607   Data:  A0 E8 18 50 B1 E8 18 50 A0 E8 18 50 20 3A BF F4 ...
T225C 000:599.617   CPU_WriteMem(592 bytes @ 0x20000400)
T225C 000:605.499 - 5.897ms returns 0x250
T225C 000:605.555 JLINK_HasError()
T225C 000:605.563 JLINK_WriteReg(R0, 0x08000400)
T225C 000:605.570 - 0.006ms returns 0
T225C 000:605.575 JLINK_WriteReg(R1, 0x00000400)
T225C 000:605.580 - 0.005ms returns 0
T225C 000:605.586 JLINK_WriteReg(R2, 0x20000250)
T225C 000:605.590 - 0.004ms returns 0
T225C 000:605.596 JLINK_WriteReg(R3, 0x00000000)
T225C 000:605.600 - 0.004ms returns 0
T225C 000:605.606 JLINK_WriteReg(R4, 0x00000000)
T225C 000:605.610 - 0.004ms returns 0
T225C 000:605.616 JLINK_WriteReg(R5, 0x00000000)
T225C 000:605.620 - 0.004ms returns 0
T225C 000:605.626 JLINK_WriteReg(R6, 0x00000000)
T225C 000:605.630 - 0.004ms returns 0
T225C 000:605.640 JLINK_WriteReg(R7, 0x00000000)
T225C 000:605.646 - 0.006ms returns 0
T225C 000:605.651 JLINK_WriteReg(R8, 0x00000000)
T225C 000:605.656 - 0.004ms returns 0
T225C 000:605.661 JLINK_WriteReg(R9, 0x2000024C)
T225C 000:605.666 - 0.004ms returns 0
T225C 000:605.672 JLINK_WriteReg(R10, 0x00000000)
T225C 000:605.676 - 0.004ms returns 0
T225C 000:605.681 JLINK_WriteReg(R11, 0x00000000)
T225C 000:605.686 - 0.004ms returns 0
T225C 000:605.692 JLINK_WriteReg(R12, 0x00000000)
T225C 000:605.696 - 0.004ms returns 0
T225C 000:605.702 JLINK_WriteReg(R13 (SP), 0x20008000)
T225C 000:605.707 - 0.005ms returns 0
T225C 000:605.713 JLINK_WriteReg(R14, 0x20000001)
T225C 000:605.717 - 0.004ms returns 0
T225C 000:605.723 JLINK_WriteReg(R15 (PC), 0x2000014C)
T225C 000:605.728 - 0.004ms returns 0
T225C 000:605.733 JLINK_WriteReg(XPSR, 0x01000000)
T225C 000:605.738 - 0.005ms returns 0
T225C 000:605.743 JLINK_WriteReg(MSP, 0x20008000)
T225C 000:605.748 - 0.004ms returns 0
T225C 000:605.753 JLINK_WriteReg(PSP, 0x20008000)
T225C 000:605.758 - 0.004ms returns 0
T225C 000:605.763 JLINK_WriteReg(CFBP, 0x00000000)
T225C 000:605.768 - 0.004ms returns 0
T225C 000:605.774 JLINK_SetBPEx(Addr = 0x20000000, Type = 0xFFFFFFF2)
T225C 000:605.780 - 0.006ms returns 0x00000006
T225C 000:605.786 JLINK_Go()
T225C 000:605.795   CPU_WriteMem(4 bytes @ 0xE0002000)
T225C 000:647.912   CPU_ReadMem(4 bytes @ 0xE0001000)
T225C 000:653.607 - 47.819ms 
T225C 000:653.743 JLINK_IsHalted()
T225C 000:654.444 - 0.699ms returns FALSE
T225C 000:654.554 JLINK_HasError()
T225C 000:657.729 JLINK_IsHalted()
T225C 000:658.488 - 0.757ms returns FALSE
T225C 000:658.583 JLINK_HasError()
T225C 000:659.804 JLINK_IsHalted()
T225C 000:660.649 - 0.844ms returns FALSE
T225C 000:660.790 JLINK_HasError()
T225C 000:662.713 JLINK_IsHalted()
T225C 000:668.537 - 5.821ms returns TRUE
T225C 000:668.658 JLINK_ReadReg(R15 (PC))
T225C 000:668.681 - 0.022ms returns 0x20000000
T225C 000:668.703 JLINK_ClrBPEx(BPHandle = 0x00000006)
T225C 000:668.724 - 0.020ms returns 0x00
T225C 000:668.745 JLINK_ReadReg(R0)
T225C 000:668.763 - 0.018ms returns 0x00000000
T225C 000:668.861 JLINK_WriteMem(0x20000250, 0x1B0 Bytes, ...)
T225C 000:668.881   Data:  21 68 4F F2 81 02 C0 F2 FA 22 90 42 88 68 05 D8 ...
T225C 000:668.988   CPU_WriteMem(432 bytes @ 0x20000250)
T225C 000:673.511 - 4.649ms returns 0x1B0
T225C 000:673.587 JLINK_WriteMem(0x20000400, 0x250 Bytes, ...)
T225C 000:673.612   Data:  04 D1 88 68 38 40 40 F0 01 00 88 60 04 F0 EC FC ...
T225C 000:673.646   CPU_WriteMem(592 bytes @ 0x20000400)
T225C 000:679.872 - 6.284ms returns 0x250
T225C 000:680.070 JLINK_HasError()
T225C 000:680.105 JLINK_WriteReg(R0, 0x08000800)
T225C 000:680.128 - 0.023ms returns 0
T225C 000:680.163 JLINK_WriteReg(R1, 0x00000400)
T225C 000:680.181 - 0.018ms returns 0
T225C 000:680.201 JLINK_WriteReg(R2, 0x20000250)
T225C 000:680.219 - 0.017ms returns 0
T225C 000:680.239 JLINK_WriteReg(R3, 0x00000000)
T225C 000:680.256 - 0.017ms returns 0
T225C 000:680.275 JLINK_WriteReg(R4, 0x00000000)
T225C 000:680.292 - 0.017ms returns 0
T225C 000:680.312 JLINK_WriteReg(R5, 0x00000000)
T225C 000:680.329 - 0.017ms returns 0
T225C 000:680.349 JLINK_WriteReg(R6, 0x00000000)
T225C 000:680.366 - 0.017ms returns 0
T225C 000:680.386 JLINK_WriteReg(R7, 0x00000000)
T225C 000:680.403 - 0.017ms returns 0
T225C 000:680.423 JLINK_WriteReg(R8, 0x00000000)
T225C 000:680.440 - 0.016ms returns 0
T225C 000:680.459 JLINK_WriteReg(R9, 0x2000024C)
T225C 000:680.476 - 0.017ms returns 0
T225C 000:680.496 JLINK_WriteReg(R10, 0x00000000)
T225C 000:680.513 - 0.017ms returns 0
T225C 000:680.534 JLINK_WriteReg(R11, 0x00000000)
T225C 000:680.551 - 0.017ms returns 0
T225C 000:680.573 JLINK_WriteReg(R12, 0x00000000)
T225C 000:680.590 - 0.017ms returns 0
T225C 000:680.611 JLINK_WriteReg(R13 (SP), 0x20008000)
T225C 000:680.629 - 0.019ms returns 0
T225C 000:680.649 JLINK_WriteReg(R14, 0x20000001)
T225C 000:680.666 - 0.017ms returns 0
T225C 000:680.686 JLINK_WriteReg(R15 (PC), 0x2000014C)
T225C 000:680.836 - 0.149ms returns 0
T225C 000:680.865 JLINK_WriteReg(XPSR, 0x01000000)
T225C 000:680.882 - 0.017ms returns 0
T225C 000:680.902 JLINK_WriteReg(MSP, 0x20008000)
T225C 000:680.919 - 0.017ms returns 0
T225C 000:680.939 JLINK_WriteReg(PSP, 0x20008000)
T225C 000:680.956 - 0.017ms returns 0
T225C 000:680.976 JLINK_WriteReg(CFBP, 0x00000000)
T225C 000:680.993 - 0.016ms returns 0
T225C 000:681.015 JLINK_SetBPEx(Addr = 0x20000000, Type = 0xFFFFFFF2)
T225C 000:681.036 - 0.022ms returns 0x00000007
T225C 000:681.056 JLINK_Go()
T225C 000:681.087   CPU_WriteMem(4 bytes @ 0xE0002000)
T225C 000:681.842   CPU_ReadMem(4 bytes @ 0xE0001000)
T225C 000:687.460 - 6.403ms 
T225C 000:687.519 JLINK_IsHalted()
T225C 000:688.038 - 0.519ms returns FALSE
T225C 000:688.077 JLINK_HasError()
T225C 000:689.598 JLINK_IsHalted()
T225C 000:690.063 - 0.464ms returns FALSE
T225C 000:690.129 JLINK_HasError()
T225C 000:691.593 JLINK_IsHalted()
T225C 000:692.097 - 0.503ms returns FALSE
T225C 000:692.137 JLINK_HasError()
T225C 000:693.593 JLINK_IsHalted()
T225C 000:694.334 - 0.739ms returns FALSE
T225C 000:694.428 JLINK_HasError()
T225C 000:696.580 JLINK_IsHalted()
T225C 000:701.409 - 4.828ms returns TRUE
T225C 000:701.479 JLINK_ReadReg(R15 (PC))
T225C 000:701.497 - 0.016ms returns 0x20000000
T225C 000:701.511 JLINK_ClrBPEx(BPHandle = 0x00000007)
T225C 000:701.524 - 0.013ms returns 0x00
T225C 000:701.537 JLINK_ReadReg(R0)
T225C 000:701.549 - 0.011ms returns 0x00000000
T225C 000:701.617 JLINK_WriteMem(0x20000250, 0x1B0 Bytes, ...)
T225C 000:701.631   Data:  55 03 EE 07 08 BF 6B 08 82 EA 53 06 DD 07 08 BF ...
T225C 000:701.660   CPU_WriteMem(432 bytes @ 0x20000250)
T225C 000:706.051 - 4.433ms returns 0x1B0
T225C 000:706.133 JLINK_WriteMem(0x20000400, 0x250 Bytes, ...)
T225C 000:706.151   Data:  83 EA 52 00 D4 07 08 BF 50 08 83 EA 50 02 C4 07 ...
T225C 000:706.182   CPU_WriteMem(592 bytes @ 0x20000400)
T225C 000:712.147 - 6.012ms returns 0x250
T225C 000:712.375 JLINK_HasError()
T225C 000:712.416 JLINK_WriteReg(R0, 0x08000C00)
T225C 000:712.438 - 0.022ms returns 0
T225C 000:712.460 JLINK_WriteReg(R1, 0x00000400)
T225C 000:712.477 - 0.017ms returns 0
T225C 000:712.498 JLINK_WriteReg(R2, 0x20000250)
T225C 000:712.515 - 0.017ms returns 0
T225C 000:712.534 JLINK_WriteReg(R3, 0x00000000)
T225C 000:712.551 - 0.017ms returns 0
T225C 000:712.571 JLINK_WriteReg(R4, 0x00000000)
T225C 000:712.588 - 0.017ms returns 0
T225C 000:712.606 JLINK_WriteReg(R5, 0x00000000)
T225C 000:712.621 - 0.015ms returns 0
T225C 000:712.638 JLINK_WriteReg(R6, 0x00000000)
T225C 000:712.654 - 0.015ms returns 0
T225C 000:712.671 JLINK_WriteReg(R7, 0x00000000)
T225C 000:712.687 - 0.015ms returns 0
T225C 000:712.704 JLINK_WriteReg(R8, 0x00000000)
T225C 000:712.720 - 0.015ms returns 0
T225C 000:712.737 JLINK_WriteReg(R9, 0x2000024C)
T225C 000:712.753 - 0.015ms returns 0
T225C 000:712.771 JLINK_WriteReg(R10, 0x00000000)
T225C 000:712.787 - 0.016ms returns 0
T225C 000:712.805 JLINK_WriteReg(R11, 0x00000000)
T225C 000:712.821 - 0.015ms returns 0
T225C 000:712.838 JLINK_WriteReg(R12, 0x00000000)
T225C 000:712.854 - 0.015ms returns 0
T225C 000:712.872 JLINK_WriteReg(R13 (SP), 0x20008000)
T225C 000:712.889 - 0.017ms returns 0
T225C 000:712.907 JLINK_WriteReg(R14, 0x20000001)
T225C 000:712.922 - 0.015ms returns 0
T225C 000:712.940 JLINK_WriteReg(R15 (PC), 0x2000014C)
T225C 000:712.956 - 0.015ms returns 0
T225C 000:712.974 JLINK_WriteReg(XPSR, 0x01000000)
T225C 000:712.989 - 0.015ms returns 0
T225C 000:713.007 JLINK_WriteReg(MSP, 0x20008000)
T225C 000:713.023 - 0.015ms returns 0
T225C 000:713.041 JLINK_WriteReg(PSP, 0x20008000)
T225C 000:713.056 - 0.015ms returns 0
T225C 000:713.074 JLINK_WriteReg(CFBP, 0x00000000)
T225C 000:713.090 - 0.015ms returns 0
T225C 000:713.108 JLINK_SetBPEx(Addr = 0x20000000, Type = 0xFFFFFFF2)
T225C 000:713.125 - 0.018ms returns 0x00000008
T225C 000:713.142 JLINK_Go()
T225C 000:713.168   CPU_WriteMem(4 bytes @ 0xE0002000)
T225C 000:755.035   CPU_ReadMem(4 bytes @ 0xE0001000)
T225C 000:762.326 - 49.182ms 
T225C 000:762.401 JLINK_IsHalted()
T225C 000:762.858 - 0.456ms returns FALSE
T225C 000:762.888 JLINK_HasError()
T225C 000:764.054 JLINK_IsHalted()
T225C 000:764.584 - 0.529ms returns FALSE
T225C 000:764.614 JLINK_HasError()
T225C 000:766.046 JLINK_IsHalted()
T225C 000:766.593 - 0.547ms returns FALSE
T225C 000:766.627 JLINK_HasError()
T225C 000:768.040 JLINK_IsHalted()
T225C 000:768.582 - 0.542ms returns FALSE
T225C 000:768.620 JLINK_HasError()
T225C 000:770.035 JLINK_IsHalted()
T225C 000:770.588 - 0.553ms returns FALSE
T225C 000:770.630 JLINK_HasError()
T225C 000:772.033 JLINK_IsHalted()
T225C 000:776.849 - 4.815ms returns TRUE
T225C 000:776.915 JLINK_ReadReg(R15 (PC))
T225C 000:776.925 - 0.009ms returns 0x20000000
T225C 000:776.934 JLINK_ClrBPEx(BPHandle = 0x00000008)
T225C 000:776.943 - 0.008ms returns 0x00
T225C 000:776.951 JLINK_ReadReg(R0)
T225C 000:776.959 - 0.007ms returns 0x00000000
T225C 000:777.010 JLINK_WriteMem(0x20000250, 0x1B0 Bytes, ...)
T225C 000:777.018   Data:  40 F2 27 45 C4 F2 02 05 AC 45 43 DC A0 25 C4 F2 ...
T225C 000:777.183   CPU_WriteMem(432 bytes @ 0x20000250)
T225C 000:781.557 - 4.545ms returns 0x1B0
T225C 000:781.640 JLINK_WriteMem(0x20000400, 0x250 Bytes, ...)
T225C 000:781.653   Data:  02 04 A4 45 28 D0 70 24 C4 F2 02 04 A4 45 23 D0 ...
T225C 000:781.678   CPU_WriteMem(592 bytes @ 0x20000400)
T225C 000:787.597 - 5.955ms returns 0x250
T225C 000:787.668 JLINK_HasError()
T225C 000:787.689 JLINK_WriteReg(R0, 0x08001000)
T225C 000:787.707 - 0.018ms returns 0
T225C 000:787.724 JLINK_WriteReg(R1, 0x00000400)
T225C 000:787.738 - 0.014ms returns 0
T225C 000:787.755 JLINK_WriteReg(R2, 0x20000250)
T225C 000:787.769 - 0.014ms returns 0
T225C 000:787.790 JLINK_WriteReg(R3, 0x00000000)
T225C 000:787.803 - 0.014ms returns 0
T225C 000:787.819 JLINK_WriteReg(R4, 0x00000000)
T225C 000:787.833 - 0.014ms returns 0
T225C 000:787.849 JLINK_WriteReg(R5, 0x00000000)
T225C 000:787.863 - 0.013ms returns 0
T225C 000:787.879 JLINK_WriteReg(R6, 0x00000000)
T225C 000:787.893 - 0.014ms returns 0
T225C 000:787.909 JLINK_WriteReg(R7, 0x00000000)
T225C 000:787.923 - 0.013ms returns 0
T225C 000:787.939 JLINK_WriteReg(R8, 0x00000000)
T225C 000:787.953 - 0.014ms returns 0
T225C 000:787.969 JLINK_WriteReg(R9, 0x2000024C)
T225C 000:787.984 - 0.015ms returns 0
T225C 000:788.001 JLINK_WriteReg(R10, 0x00000000)
T225C 000:788.015 - 0.014ms returns 0
T225C 000:788.048 JLINK_WriteReg(R11, 0x00000000)
T225C 000:788.062 - 0.014ms returns 0
T225C 000:788.088 JLINK_WriteReg(R12, 0x00000000)
T225C 000:788.102 - 0.014ms returns 0
T225C 000:788.119 JLINK_WriteReg(R13 (SP), 0x20008000)
T225C 000:788.134 - 0.015ms returns 0
T225C 000:788.150 JLINK_WriteReg(R14, 0x20000001)
T225C 000:788.165 - 0.014ms returns 0
T225C 000:788.183 JLINK_WriteReg(R15 (PC), 0x2000014C)
T225C 000:788.199 - 0.016ms returns 0
T225C 000:788.217 JLINK_WriteReg(XPSR, 0x01000000)
T225C 000:788.233 - 0.016ms returns 0
T225C 000:788.250 JLINK_WriteReg(MSP, 0x20008000)
T225C 000:788.266 - 0.015ms returns 0
T225C 000:788.283 JLINK_WriteReg(PSP, 0x20008000)
T225C 000:788.298 - 0.015ms returns 0
T225C 000:788.316 JLINK_WriteReg(CFBP, 0x00000000)
T225C 000:788.331 - 0.015ms returns 0
T225C 000:788.352 JLINK_SetBPEx(Addr = 0x20000000, Type = 0xFFFFFFF2)
T225C 000:788.370 - 0.019ms returns 0x00000009
T225C 000:788.388 JLINK_Go()
T225C 000:788.413   CPU_WriteMem(4 bytes @ 0xE0002000)
T225C 000:789.347   CPU_ReadMem(4 bytes @ 0xE0001000)
T225C 000:795.537 - 7.146ms 
T225C 000:795.657 JLINK_IsHalted()
T225C 000:797.372 - 1.714ms returns FALSE
T225C 000:797.474 JLINK_HasError()
T225C 000:798.946 JLINK_IsHalted()
T225C 000:799.612 - 0.665ms returns FALSE
T225C 000:799.733 JLINK_HasError()
T225C 000:800.936 JLINK_IsHalted()
T225C 000:801.607 - 0.670ms returns FALSE
T225C 000:801.672 JLINK_HasError()
T225C 000:802.930 JLINK_IsHalted()
T225C 000:803.484 - 0.554ms returns FALSE
T225C 000:803.546 JLINK_HasError()
T225C 000:804.928 JLINK_IsHalted()
T225C 000:811.009 - 6.079ms returns TRUE
T225C 000:811.118 JLINK_ReadReg(R15 (PC))
T225C 000:811.137 - 0.018ms returns 0x20000000
T225C 000:811.155 JLINK_ClrBPEx(BPHandle = 0x00000009)
T225C 000:811.171 - 0.016ms returns 0x00
T225C 000:811.188 JLINK_ReadReg(R0)
T225C 000:811.202 - 0.014ms returns 0x00000000
T225C 000:811.308 JLINK_WriteMem(0x20000250, 0x1B0 Bytes, ...)
T225C 000:811.324   Data:  10 B5 84 B0 41 F2 30 34 C2 F2 00 44 20 46 0F F0 ...
T225C 000:811.362   CPU_WriteMem(432 bytes @ 0x20000250)
T225C 000:815.844 - 4.536ms returns 0x1B0
T225C 000:815.935 JLINK_WriteMem(0x20000400, 0x250 Bytes, ...)
T225C 000:815.955   Data:  9D F8 07 00 C0 F3 40 10 02 B0 80 BD 00 00 00 00 ...
T225C 000:815.986   CPU_WriteMem(592 bytes @ 0x20000400)
T225C 000:821.978 - 6.043ms returns 0x250
T225C 000:822.088 JLINK_HasError()
T225C 000:822.128 JLINK_WriteReg(R0, 0x08001400)
T225C 000:822.149 - 0.021ms returns 0
T225C 000:822.170 JLINK_WriteReg(R1, 0x00000400)
T225C 000:822.187 - 0.017ms returns 0
T225C 000:822.208 JLINK_WriteReg(R2, 0x20000250)
T225C 000:822.225 - 0.017ms returns 0
T225C 000:822.245 JLINK_WriteReg(R3, 0x00000000)
T225C 000:822.262 - 0.017ms returns 0
T225C 000:822.282 JLINK_WriteReg(R4, 0x00000000)
T225C 000:822.298 - 0.017ms returns 0
T225C 000:822.318 JLINK_WriteReg(R5, 0x00000000)
T225C 000:822.335 - 0.016ms returns 0
T225C 000:822.354 JLINK_WriteReg(R6, 0x00000000)
T225C 000:822.371 - 0.017ms returns 0
T225C 000:822.391 JLINK_WriteReg(R7, 0x00000000)
T225C 000:822.408 - 0.016ms returns 0
T225C 000:822.427 JLINK_WriteReg(R8, 0x00000000)
T225C 000:822.446 - 0.018ms returns 0
T225C 000:822.466 JLINK_WriteReg(R9, 0x2000024C)
T225C 000:822.483 - 0.017ms returns 0
T225C 000:822.502 JLINK_WriteReg(R10, 0x00000000)
T225C 000:822.519 - 0.017ms returns 0
T225C 000:822.539 JLINK_WriteReg(R11, 0x00000000)
T225C 000:822.555 - 0.016ms returns 0
T225C 000:822.575 JLINK_WriteReg(R12, 0x00000000)
T225C 000:822.592 - 0.016ms returns 0
T225C 000:822.612 JLINK_WriteReg(R13 (SP), 0x20008000)
T225C 000:822.631 - 0.019ms returns 0
T225C 000:822.650 JLINK_WriteReg(R14, 0x20000001)
T225C 000:822.668 - 0.017ms returns 0
T225C 000:822.687 JLINK_WriteReg(R15 (PC), 0x2000014C)
T225C 000:822.705 - 0.017ms returns 0
T225C 000:822.725 JLINK_WriteReg(XPSR, 0x01000000)
T225C 000:822.742 - 0.017ms returns 0
T225C 000:822.762 JLINK_WriteReg(MSP, 0x20008000)
T225C 000:822.779 - 0.017ms returns 0
T225C 000:822.799 JLINK_WriteReg(PSP, 0x20008000)
T225C 000:822.815 - 0.016ms returns 0
T225C 000:822.835 JLINK_WriteReg(CFBP, 0x00000000)
T225C 000:822.852 - 0.017ms returns 0
T225C 000:822.874 JLINK_SetBPEx(Addr = 0x20000000, Type = 0xFFFFFFF2)
T225C 000:822.894 - 0.021ms returns 0x0000000A
T225C 000:822.979 JLINK_Go()
T225C 000:823.007   CPU_WriteMem(4 bytes @ 0xE0002000)
T225C 000:866.337   CPU_ReadMem(4 bytes @ 0xE0001000)
T225C 000:871.788 - 48.806ms 
T225C 000:871.903 JLINK_IsHalted()
T225C 000:874.093 - 2.188ms returns FALSE
T225C 000:874.177 JLINK_HasError()
T225C 000:875.684 JLINK_IsHalted()
T225C 000:879.589 - 3.903ms returns FALSE
T225C 000:879.743 JLINK_HasError()
T225C 000:881.674 JLINK_IsHalted()
T225C 000:886.746 - 5.070ms returns TRUE
T225C 000:886.828 JLINK_ReadReg(R15 (PC))
T225C 000:886.842 - 0.014ms returns 0x20000000
T225C 000:886.856 JLINK_ClrBPEx(BPHandle = 0x0000000A)
T225C 000:886.868 - 0.012ms returns 0x00
T225C 000:886.881 JLINK_ReadReg(R0)
T225C 000:886.891 - 0.010ms returns 0x00000000
T225C 000:886.962 JLINK_WriteMem(0x20000250, 0x1B0 Bytes, ...)
T225C 000:886.974   Data:  2D E9 F0 4F 85 B0 40 F2 F4 36 00 28 C2 F2 00 46 ...
T225C 000:887.003   CPU_WriteMem(432 bytes @ 0x20000250)
T225C 000:891.468 - 4.505ms returns 0x1B0
T225C 000:891.533 JLINK_WriteMem(0x20000400, 0x250 Bytes, ...)
T225C 000:891.547   Data:  01 30 C0 B2 03 28 28 BF 08 46 4D F2 8A 31 70 70 ...
T225C 000:891.573   CPU_WriteMem(592 bytes @ 0x20000400)
T225C 000:897.576 - 6.041ms returns 0x250
T225C 000:897.720 JLINK_HasError()
T225C 000:897.753 JLINK_WriteReg(R0, 0x08001800)
T225C 000:897.766 - 0.012ms returns 0
T225C 000:897.790 JLINK_WriteReg(R1, 0x00000400)
T225C 000:897.799 - 0.009ms returns 0
T225C 000:897.810 JLINK_WriteReg(R2, 0x20000250)
T225C 000:897.819 - 0.009ms returns 0
T225C 000:897.830 JLINK_WriteReg(R3, 0x00000000)
T225C 000:897.839 - 0.009ms returns 0
T225C 000:897.849 JLINK_WriteReg(R4, 0x00000000)
T225C 000:897.858 - 0.009ms returns 0
T225C 000:897.869 JLINK_WriteReg(R5, 0x00000000)
T225C 000:897.878 - 0.009ms returns 0
T225C 000:897.888 JLINK_WriteReg(R6, 0x00000000)
T225C 000:897.897 - 0.009ms returns 0
T225C 000:897.908 JLINK_WriteReg(R7, 0x00000000)
T225C 000:897.916 - 0.009ms returns 0
T225C 000:897.927 JLINK_WriteReg(R8, 0x00000000)
T225C 000:897.938 - 0.010ms returns 0
T225C 000:897.950 JLINK_WriteReg(R9, 0x2000024C)
T225C 000:897.960 - 0.010ms returns 0
T225C 000:897.970 JLINK_WriteReg(R10, 0x00000000)
T225C 000:897.979 - 0.009ms returns 0
T225C 000:897.990 JLINK_WriteReg(R11, 0x00000000)
T225C 000:897.999 - 0.008ms returns 0
T225C 000:898.009 JLINK_WriteReg(R12, 0x00000000)
T225C 000:898.018 - 0.009ms returns 0
T225C 000:898.029 JLINK_WriteReg(R13 (SP), 0x20008000)
T225C 000:898.039 - 0.010ms returns 0
T225C 000:898.050 JLINK_WriteReg(R14, 0x20000001)
T225C 000:898.059 - 0.009ms returns 0
T225C 000:898.069 JLINK_WriteReg(R15 (PC), 0x2000014C)
T225C 000:898.078 - 0.009ms returns 0
T225C 000:898.089 JLINK_WriteReg(XPSR, 0x01000000)
T225C 000:898.098 - 0.009ms returns 0
T225C 000:898.108 JLINK_WriteReg(MSP, 0x20008000)
T225C 000:898.117 - 0.009ms returns 0
T225C 000:898.128 JLINK_WriteReg(PSP, 0x20008000)
T225C 000:898.137 - 0.008ms returns 0
T225C 000:898.147 JLINK_WriteReg(CFBP, 0x00000000)
T225C 000:898.156 - 0.009ms returns 0
T225C 000:898.168 JLINK_SetBPEx(Addr = 0x20000000, Type = 0xFFFFFFF2)
T225C 000:898.179 - 0.012ms returns 0x0000000B
T225C 000:898.190 JLINK_Go()
T225C 000:898.208   CPU_WriteMem(4 bytes @ 0xE0002000)
T225C 000:898.823   CPU_ReadMem(4 bytes @ 0xE0001000)
T225C 000:904.116 - 5.925ms 
T225C 000:904.178 JLINK_IsHalted()
T225C 000:904.641 - 0.463ms returns FALSE
T225C 000:904.678 JLINK_HasError()
T225C 000:906.584 JLINK_IsHalted()
T225C 000:907.247 - 0.663ms returns FALSE
T225C 000:907.290 JLINK_HasError()
T225C 000:908.575 JLINK_IsHalted()
T225C 000:909.261 - 0.686ms returns FALSE
T225C 000:909.307 JLINK_HasError()
T225C 000:910.570 JLINK_IsHalted()
T225C 000:911.640 - 1.069ms returns FALSE
T225C 000:911.686 JLINK_HasError()
T225C 000:913.562 JLINK_IsHalted()
T225C 000:918.585 - 5.021ms returns TRUE
T225C 000:918.660 JLINK_ReadReg(R15 (PC))
T225C 000:918.676 - 0.016ms returns 0x20000000
T225C 000:918.693 JLINK_ClrBPEx(BPHandle = 0x0000000B)
T225C 000:918.708 - 0.015ms returns 0x00
T225C 000:918.724 JLINK_ReadReg(R0)
T225C 000:918.737 - 0.013ms returns 0x00000000
T225C 000:918.822 JLINK_WriteMem(0x20000250, 0x1B0 Bytes, ...)
T225C 000:918.837   Data:  40 44 1F D0 4B 68 23 43 13 60 53 59 52 F8 0C 50 ...
T225C 000:918.872   CPU_WriteMem(432 bytes @ 0x20000250)
T225C 000:964.949 - 46.124ms returns 0x1B0
T225C 000:965.153 JLINK_WriteMem(0x20000400, 0x250 Bytes, ...)
T225C 000:965.177   Data:  02 EA 0E 04 C2 F3 84 65 92 FA A2 F2 B2 FA 82 F6 ...
T225C 000:965.221   CPU_WriteMem(592 bytes @ 0x20000400)
T225C 000:971.196 - 6.044ms returns 0x250
T225C 000:971.253 JLINK_HasError()
T225C 000:971.276 JLINK_WriteReg(R0, 0x08001C00)
T225C 000:971.290 - 0.014ms returns 0
T225C 000:971.304 JLINK_WriteReg(R1, 0x00000400)
T225C 000:971.315 - 0.011ms returns 0
T225C 000:971.328 JLINK_WriteReg(R2, 0x20000250)
T225C 000:971.339 - 0.011ms returns 0
T225C 000:971.352 JLINK_WriteReg(R3, 0x00000000)
T225C 000:971.363 - 0.010ms returns 0
T225C 000:971.375 JLINK_WriteReg(R4, 0x00000000)
T225C 000:971.386 - 0.010ms returns 0
T225C 000:971.399 JLINK_WriteReg(R5, 0x00000000)
T225C 000:971.410 - 0.010ms returns 0
T225C 000:971.422 JLINK_WriteReg(R6, 0x00000000)
T225C 000:971.433 - 0.010ms returns 0
T225C 000:971.445 JLINK_WriteReg(R7, 0x00000000)
T225C 000:971.456 - 0.010ms returns 0
T225C 000:971.470 JLINK_WriteReg(R8, 0x00000000)
T225C 000:971.497 - 0.026ms returns 0
T225C 000:971.510 JLINK_WriteReg(R9, 0x2000024C)
T225C 000:971.521 - 0.011ms returns 0
T225C 000:971.533 JLINK_WriteReg(R10, 0x00000000)
T225C 000:971.544 - 0.011ms returns 0
T225C 000:971.557 JLINK_WriteReg(R11, 0x00000000)
T225C 000:971.568 - 0.011ms returns 0
T225C 000:971.580 JLINK_WriteReg(R12, 0x00000000)
T225C 000:971.591 - 0.011ms returns 0
T225C 000:971.604 JLINK_WriteReg(R13 (SP), 0x20008000)
T225C 000:971.616 - 0.012ms returns 0
T225C 000:971.629 JLINK_WriteReg(R14, 0x20000001)
T225C 000:971.640 - 0.011ms returns 0
T225C 000:971.653 JLINK_WriteReg(R15 (PC), 0x2000014C)
T225C 000:971.664 - 0.011ms returns 0
T225C 000:971.677 JLINK_WriteReg(XPSR, 0x01000000)
T225C 000:971.688 - 0.011ms returns 0
T225C 000:971.701 JLINK_WriteReg(MSP, 0x20008000)
T225C 000:971.711 - 0.010ms returns 0
T225C 000:971.724 JLINK_WriteReg(PSP, 0x20008000)
T225C 000:971.735 - 0.010ms returns 0
T225C 000:971.748 JLINK_WriteReg(CFBP, 0x00000000)
T225C 000:971.759 - 0.011ms returns 0
T225C 000:971.773 JLINK_SetBPEx(Addr = 0x20000000, Type = 0xFFFFFFF2)
T225C 000:971.787 - 0.014ms returns 0x0000000C
T225C 000:971.800 JLINK_Go()
T225C 000:971.817   CPU_WriteMem(4 bytes @ 0xE0002000)
T225C 000:972.344   CPU_ReadMem(4 bytes @ 0xE0001000)
T225C 000:977.756 - 5.954ms 
T225C 000:977.894 JLINK_IsHalted()
T225C 000:978.460 - 0.565ms returns FALSE
T225C 000:978.506 JLINK_HasError()
T225C 000:980.075 JLINK_IsHalted()
T225C 000:980.649 - 0.573ms returns FALSE
T225C 000:980.725 JLINK_HasError()
T225C 000:982.069 JLINK_IsHalted()
T225C 000:982.594 - 0.525ms returns FALSE
T225C 000:982.636 JLINK_HasError()
T225C 000:984.064 JLINK_IsHalted()
T225C 000:984.597 - 0.533ms returns FALSE
T225C 000:984.641 JLINK_HasError()
T225C 000:986.061 JLINK_IsHalted()
T225C 000:990.910 - 4.848ms returns TRUE
